T508C 6255:433 SEGGER J-Link V6.30h Log File (0000ms, 30710ms total)
T508C 6255:433 DLL Compiled: Mar 16 2018 18:02:51 (0000ms, 30710ms total)
T508C 6255:433 Logging started @ 2018-09-23 22:42 (0000ms, 30710ms total)
T508C 6255:433 JLINK_SetWarnOutHandler(...) (0000ms, 30710ms total)
T508C 6255:433 JLINK_OpenEx(...)
Firmware: J-Link OB-STM32F072-CortexM compiled Mar  8 2020 11:15:54
Hardware: V1.00
Feature(s): GDB, RDI, FlashBP, FlashDL, JFlash, RDDI
TELNET listener socket opened on port 19021WEBSRV 
Starting webserver (0104ms, 30814ms total)
T508C 6255:433 WEBSRV Webserver running on local port 19080 (0104ms, 30814ms total)
T508C 6255:433   returns O.K. (0105ms, 30815ms total)
T508C 6255:538 JLINK_GetEmuCaps()  returns 0xB8EA5A33 (0000ms, 30815ms total)
T508C 6255:538 JLINK_TIF_GetAvailable(...) (0000ms, 30815ms total)
T508C 6255:538 JLINK_SetErrorOutHandler(...) (0000ms, 30815ms total)
T508C 6255:538 JLINK_ExecCommand("ProjectFile = "G:\Work\io\design\code\bootloader_tftp\MDK-ARM\JLinkSettings.ini"", ...).   returns 0x00 (0002ms, 30817ms total)
T508C 6255:540 JLINK_ExecCommand("Device = STM32F407VETx", ...). Device "STM32F407VE" selected.  returns 0x00 (0002ms, 30819ms total)
T508C 6255:542 JLINK_ExecCommand("DisableConnectionTimeout", ...).   returns 0x01 (0000ms, 30819ms total)
T508C 6255:542 JLINK_GetHardwareVersion()  returns 0x2710 (0000ms, 30819ms total)
T508C 6255:542 JLINK_GetDLLVersion()  returns 63008 (0000ms, 30819ms total)
T508C 6255:542 JLINK_GetFirmwareString(...) (0000ms, 30819ms total)
T508C 6255:542 JLINK_GetDLLVersion()  returns 63008 (0000ms, 30819ms total)
T508C 6255:542 JLINK_GetCompileDateTime() (0000ms, 30819ms total)
T508C 6255:542 JLINK_GetFirmwareString(...) (0000ms, 30819ms total)
T508C 6255:542 JLINK_GetHardwareVersion()  returns 0x2710 (0000ms, 30819ms total)
T508C 6255:542 JLINK_TIF_Select(JLINKARM_TIF_SWD)  returns 0x00 (0001ms, 30820ms total)
T508C 6255:543 JLINK_SetSpeed(5000) (0000ms, 30820ms total)
T508C 6255:543 JLINK_GetId() >0x10B TIF>Found SW-DP with ID 0x2BA01477 >0x0D TIF> >0x28 TIF> >0x0D TIF> >0x28 TIF> >0x0D TIF> >0x28 TIF> >0x0D TIF> >0x28 TIF> >0x0D TIF> >0x21 TIF> >0x0D TIF> >0x28 TIF> >0x0D TIF> >0x28 TIF> >0x0D TIF> >0x28 TIF> >0x0D TIF> >0x21 TIF> >0x0D TIF> >0x21 TIF> >0x0D TIF> >0x28 TIF> >0x0D TIF> >0x21 TIF> >0x0D TIF> >0x21 TIF> >0x0D TIF> >0x28 TIF> >0x0D TIF> >0x21 TIF> >0x0D TIF> >0x21 TIF> >0x0D TIF> >0x28 TIF> >0x0D TIF> >0x21 TIF> >0x0D TIF> >0x21 TIF> >0x0D TIF>
 >0x28 TIF> >0x0D TIF> >0x21 TIF> >0x0D TIF> >0x21 TIF> >0x0D TIF> >0x28 TIF> >0x0D TIF> >0x21 TIF> >0x0D TIF> >0x21 TIF> >0x10B TIF>Found SW-DP with ID 0x2BA01477 >0x0D TIF> >0x28 TIF> >0x0D TIF> >0x28 TIF> >0x0D TIF> >0x28 TIF> >0x0D TIF> >0x28 TIF> >0x0D TIF> >0x21 TIF> >0x0D TIF> >0x28 TIF>Scanning AP map to find all available APs >0x0D TIF> >0x28 TIF> >0x0D TIF> >0x21 TIF> >0x0D TIF> >0x21 TIF> >0x0D TIF> >0x28 TIF> >0x0D TIF> >0x21 TIF> >0x0D TIF> >0x21 TIF>
AP[1]: Stopped AP scan as end of AP map has been reachedAP[0]: AHB-AP (IDR: 0x24770011)Iterating through AP map to find AHB-AP to use >0x42 TIF> >0x28 TIF> >0x0D TIF> >0x28 TIF> >0x0D TIF> >0x21 TIF> >0x0D TIF> >0x21 TIF> >0x42 TIF> >0x28 TIF> >0x0D TIF> >0x28 TIF> >0x0D TIF> >0x28 TIF> >0x0D TIF> >0x21 TIF> >0x0D TIF> >0x21 TIF>AP[0]: Core foundAP[0]: AHB-AP ROM base: 0xE00FF000 >0x0D TIF> >0x28 TIF> >0x0D TIF> >0x28 TIF> >0x0D TIF> >0x28 TIF> >0x0D TIF> >0x21 TIF> >0x0D TIF> >0x21 TIF>
CPUID register: 0x410FC241. Implementer code: 0x41 (ARM)Found Cortex-M4 r0p1, Little endian. -- CPU_ReadMem(4 bytes @ 0xE000EDF0) -- CPU_WriteMem(4 bytes @ 0xE000EDF0) -- CPU_ReadMem(4 bytes @ 0xE0002000)FPUnit: 6 code (BP) slots and 2 literal slots -- CPU_ReadMem(4 bytes @ 0xE000EDFC) -- CPU_WriteMem(4 bytes @ 0xE000EDFC) -- CPU_ReadMem(4 bytes @ 0xE0001000) -- CPU_WriteMem(4 bytes @ 0xE0001000) -- CPU_ReadMem(4 bytes @ 0xE000ED88) -- CPU_WriteMem(4 bytes @ 0xE000ED88)
 -- CPU_ReadMem(4 bytes @ 0xE000ED88) -- CPU_WriteMem(4 bytes @ 0xE000ED88)CoreSight components:ROMTbl[0] @ E00FF000 -- CPU_ReadMem(16 bytes @ 0xE00FF000) -- CPU_ReadMem(16 bytes @ 0xE000EFF0) -- CPU_ReadMem(16 bytes @ 0xE000EFE0)ROMTbl[0][0]: E000E000, CID: B105E00D, PID: 000BB00C SCS-M7 -- CPU_ReadMem(16 bytes @ 0xE0001FF0) -- CPU_ReadMem(16 bytes @ 0xE0001FE0)ROMTbl[0][1]: E0001000, CID: B105E00D, PID: 003BB002 DWT -- CPU_ReadMem(16 bytes @ 0xE0002FF0) -- CPU_ReadMem(16 bytes @ 0xE0002FE0)
ROMTbl[0][2]: E0002000, CID: B105E00D, PID: 002BB003 FPB -- CPU_ReadMem(16 bytes @ 0xE0000FF0) -- CPU_ReadMem(16 bytes @ 0xE0000FE0)ROMTbl[0][3]: E0000000, CID: B105E00D, PID: 003BB001 ITM -- CPU_ReadMem(16 bytes @ 0xE00FF010) -- CPU_ReadMem(16 bytes @ 0xE0040FF0) -- CPU_ReadMem(16 bytes @ 0xE0040FE0)ROMTbl[0][4]: E0040000, CID: B105900D, PID: 000BB9A1 TPIU -- CPU_ReadMem(16 bytes @ 0xE0041FF0) -- CPU_ReadMem(16 bytes @ 0xE0041FE0)ROMTbl[0][5]: E0041000, CID: B105900D, PID: 000BB925 ETM >0x0D TIF>
 >0x21 TIF>  returns 0x2BA01477 (0143ms, 30963ms total)
T508C 6255:686 JLINK_GetDLLVersion()  returns 63008 (0001ms, 30964ms total)
T508C 6255:687 JLINK_CORE_GetFound()  returns 0xE0000FF (0000ms, 30964ms total)
T508C 6255:687 JLINK_GetDebugInfo(0x100 = JLINKARM_ROM_TABLE_ADDR_INDEX) -- Value=0xE00FF000  returns 0x00 (0000ms, 30964ms total)
T508C 6255:687 JLINK_GetDebugInfo(0x100 = JLINKARM_ROM_TABLE_ADDR_INDEX) -- Value=0xE00FF000  returns 0x00 (0000ms, 30964ms total)
T508C 6255:687 JLINK_GetDebugInfo(0x101 = JLINKARM_DEBUG_INFO_ETM_ADDR_INDEX) -- Value=0xE0041000  returns 0x00 (0000ms, 30964ms total)
T508C 6255:687 JLINK_ReadMemEx(0xE0041FD0, 0x0020 Bytes, ..., Flags = 0x02000004) -- CPU_ReadMem(32 bytes @ 0xE0041FD0) - Data: 04 00 00 00 00 00 00 00 00 00 00 00 00 00 00 00 ...  returns 0x20 (0001ms, 30965ms total)
T508C 6255:688 JLINK_GetDebugInfo(0x102 = JLINKARM_DEBUG_INFO_MTB_ADDR_INDEX) -- Value=0x00000000  returns 0x00 (0000ms, 30965ms total)
T508C 6255:688 JLINK_GetDebugInfo(0x103 = JLINKARM_DEBUG_INFO_TPIU_ADDR_INDEX) -- Value=0xE0040000  returns 0x00 (0000ms, 30965ms total)
T508C 6255:688 JLINK_GetDebugInfo(0x104 = JLINKARM_DEBUG_INFO_ITM_ADDR_INDEX) -- Value=0xE0000000  returns 0x00 (0000ms, 30965ms total)
T508C 6255:688 JLINK_GetDebugInfo(0x105 = JLINKARM_DEBUG_INFO_DWT_ADDR_INDEX) -- Value=0xE0001000  returns 0x00 (0000ms, 30965ms total)
T508C 6255:688 JLINK_GetDebugInfo(0x106 = JLINKARM_DEBUG_INFO_FPB_ADDR_INDEX) -- Value=0xE0002000  returns 0x00 (0000ms, 30965ms total)
T508C 6255:688 JLINK_GetDebugInfo(0x107 = JLINKARM_DEBUG_INFO_NVIC_ADDR_INDEX) -- Value=0xE000E000  returns 0x00 (0000ms, 30965ms total)
T508C 6255:688 JLINK_GetDebugInfo(0x10C = JLINKARM_DEBUG_INFO_DBG_ADDR_INDEX) -- Value=0xE000EDF0  returns 0x00 (0000ms, 30965ms total)
T508C 6255:688 JLINK_GetDebugInfo(0x01 = Unknown) -- Value=0x00000001  returns 0x00 (0000ms, 30965ms total)
T508C 6255:688 JLINK_ReadMemU32(0xE000ED00, 0x0001 Items, ...) -- CPU_ReadMem(4 bytes @ 0xE000ED00) - Data: 41 C2 0F 41  returns 0x01 (0001ms, 30966ms total)
T508C 6255:689 JLINK_GetDebugInfo(0x10F = JLINKARM_DEBUG_INFO_HAS_CORTEX_M_SECURITY_EXT_INDEX) -- Value=0x00000000  returns 0x00 (0000ms, 30966ms total)
T508C 6255:689 JLINK_SetResetType(JLINKARM_CM3_RESET_TYPE_NORMAL)  returns JLINKARM_CM3_RESET_TYPE_NORMAL (0000ms, 30966ms total)
T508C 6255:689 JLINK_Reset() -- CPU is running -- CPU_WriteMem(4 bytes @ 0xE000EDF0) -- CPU is running -- CPU_WriteMem(4 bytes @ 0xE000EDFC)Reset: Halt core after reset via DEMCR.VC_CORERESET. >0x35 TIF>Reset: Reset device via AIRCR.SYSRESETREQ. -- CPU is running -- CPU_WriteMem(4 bytes @ 0xE000ED0C) >0x0D TIF> >0x28 TIF> -- CPU_ReadMem(4 bytes @ 0xE000EDF0) -- CPU_ReadMem(4 bytes @ 0xE000EDF0) -- CPU is running -- CPU_WriteMem(4 bytes @ 0xE000EDF0) -- CPU is running -- CPU_WriteMem(4 bytes @ 0xE000EDFC)
 -- CPU_ReadMem(4 bytes @ 0xE000EDF0) -- CPU_WriteMem(4 bytes @ 0xE0002000) -- CPU_ReadMem(4 bytes @ 0xE000EDFC) -- CPU_ReadMem(4 bytes @ 0xE0001000) (0070ms, 31036ms total)
T508C 6255:759 JLINK_ReadReg(R15 (PC))  returns 0x08000258 (0000ms, 31036ms total)
T508C 6255:759 JLINK_ReadReg(XPSR)  returns 0x01000000 (0000ms, 31036ms total)
T508C 6255:759 JLINK_Halt()  returns 0x00 (0000ms, 31036ms total)
T508C 6255:759 JLINK_ReadMemU32(0xE000EDF0, 0x0001 Items, ...) -- CPU_ReadMem(4 bytes @ 0xE000EDF0) - Data: 03 00 03 00  returns 0x01 (0001ms, 31037ms total)
T508C 6255:760 JLINK_WriteU32(0xE000EDF0, 0xA05F0003) -- CPU_WriteMem(4 bytes @ 0xE000EDF0)  returns 0x00 (0000ms, 31037ms total)
T508C 6255:760 JLINK_WriteU32(0xE000EDFC, 0x01000000) -- CPU_WriteMem(4 bytes @ 0xE000EDFC)  returns 0x00 (0001ms, 31038ms total)
T508C 6255:761 JLINK_GetHWStatus(...)  returns 0x00 (0001ms, 31039ms total)
T508C 6255:762 JLINK_GetNumBPUnits(Type = 0xFFFFFF00)  returns 0x06 (0000ms, 31039ms total)
T508C 6255:762 JLINK_GetNumBPUnits(Type = 0xF0)  returns 0x2000 (0000ms, 31039ms total)
T508C 6255:762 JLINK_GetNumWPUnits()  returns 0x04 (0000ms, 31039ms total)
T508C 6255:762 JLINK_GetSpeed()  returns 0x7D0 (0000ms, 31039ms total)
T508C 6255:762 JLINK_ReadMemU32(0xE000E004, 0x0001 Items, ...) -- CPU_ReadMem(4 bytes @ 0xE000E004) - Data: 02 00 00 00  returns 0x01 (0000ms, 31039ms total)
T508C 6255:762 JLINK_ReadMemU32(0xE000E004, 0x0001 Items, ...) -- CPU_ReadMem(4 bytes @ 0xE000E004) - Data: 02 00 00 00  returns 0x01 (0000ms, 31039ms total)
T508C 6255:762 JLINK_WriteMemEx(0xE0001000, 0x001C Bytes, ..., Flags = 0x02000004) - Data: 01 00 00 00 00 00 00 00 00 00 00 00 00 00 00 00 ... -- CPU_WriteMem(28 bytes @ 0xE0001000)  returns 0x1C (0002ms, 31041ms total)
T508C 6255:764 JLINK_ReadReg(R15 (PC))  returns 0x08000258 (0000ms, 31041ms total)
T508C 6255:764 JLINK_ReadReg(XPSR)  returns 0x01000000 (0000ms, 31041ms total)
T508C 6255:764 JLINK_WriteU32(0xE0041FB0, 0xC5ACCE55) -- CPU_WriteMem(4 bytes @ 0xE0041FB0)  returns 0x00 (0000ms, 31041ms total)
T508C 6255:764 JLINK_ReadMemU32(0xE0041000, 0x0001 Items, ...) -- CPU_ReadMem(4 bytes @ 0xE0041000) - Data: 01 00 00 00  returns 0x01 (0001ms, 31042ms total)
T508C 6255:765 JLINK_WriteU32(0xE0041000, 0x00000000) -- CPU_WriteMem(4 bytes @ 0xE0041000)  returns 0x00 (0000ms, 31042ms total)
T508C 6255:770 JLINK_SWO_Control(JLINKARM_SWO_CMD_GET_SPEED_INFO, ...)  returns 0x00 (0000ms, 31042ms total)
T508C 6255:770 JLINK_SWO_Control(JLINKARM_SWO_CMD_STOP, ...)  returns 0x00 (0000ms, 31042ms total)
T508C 6255:770 JLINK_SWO_Control(JLINKARM_SWO_CMD_START, ...) -- UART -- 250000bps -- CPU_ReadMem(4 bytes @ 0xE0042004)  returns 0x00 (0002ms, 31044ms total)
T508C 6255:772 JLINK_WriteU32(0xE0040004, 0x00000001) -- CPU_WriteMem(4 bytes @ 0xE0040004)  returns 0x00 (0000ms, 31044ms total)
T508C 6255:772 JLINK_WriteU32(0xE0040010, 0x0000029F)  returns 0x00 (0000ms, 31044ms total)
T508C 6255:772 JLINK_WriteU32(0xE00400F0, 0x00000002)  returns 0x00 (0000ms, 31044ms total)
T508C 6255:772 JLINK_WriteU32(0xE0040304, 0x00000000)  returns 0x00 (0000ms, 31044ms total)
T508C 6255:772 JLINK_WriteU32(0xE0000FB0, 0xC5ACCE55) -- CPU_WriteMem(4 bytes @ 0xE0000FB0)  returns 0x00 (0001ms, 31045ms total)
T508C 6255:773 JLINK_WriteU32(0xE0000E80, 0x0001000D)  returns 0x00 (0000ms, 31045ms total)
T508C 6255:773 JLINK_WriteU32(0xE0000E00, 0x00000001)  returns 0x00 (0000ms, 31045ms total)
T508C 6255:773 JLINK_WriteU32(0xE0000E40, 0x00000000)  returns 0x00 (0000ms, 31045ms total)
T508C 6255:773 JLINK_WriteU32(0xE0001000, 0x00010A1F)  returns 0x00 (0000ms, 31045ms total)
T508C 6255:934 JLINK_SetResetType(JLINKARM_CM3_RESET_TYPE_NORMAL)  returns JLINKARM_CM3_RESET_TYPE_NORMAL (0000ms, 31045ms total)
T508C 6255:934 JLINK_Reset() -- CPU_WriteMem(4 bytes @ 0xE0000E00) -- CPU_WriteMem(4 bytes @ 0xE0000E40) -- CPU_WriteMem(4 bytes @ 0xE0000E80) -- CPU_WriteMem(4 bytes @ 0xE0001000) -- CPU_WriteMem(4 bytes @ 0xE0040010) -- CPU_WriteMem(4 bytes @ 0xE00400F0) -- CPU_WriteMem(4 bytes @ 0xE0040304) -- CPU_WriteMem(4 bytes @ 0xE000EDF0) -- CPU_WriteMem(4 bytes @ 0xE000EDFC)Reset: Halt core after reset via DEMCR.VC_CORERESET. >0x35 TIF>Reset: Reset device via AIRCR.SYSRESETREQ.
 -- CPU_WriteMem(4 bytes @ 0xE000ED0C) >0x0D TIF> >0x28 TIF> -- CPU_ReadMem(4 bytes @ 0xE000EDF0) -- CPU_ReadMem(4 bytes @ 0xE000EDF0) -- CPU_WriteMem(4 bytes @ 0xE000EDF0) -- CPU_WriteMem(4 bytes @ 0xE000EDFC) -- CPU_ReadMem(4 bytes @ 0xE000EDF0) -- CPU_WriteMem(4 bytes @ 0xE0002000) -- CPU_ReadMem(4 bytes @ 0xE000EDFC) -- CPU_ReadMem(4 bytes @ 0xE0001000) -- CPU_ReadMem(4 bytes @ 0xE0042004) (0071ms, 31116ms total)
T508C 6256:005 JLINK_WriteU32(0xE000EDFC, 0x01000000) -- CPU_WriteMem(4 bytes @ 0xE000EDFC)  returns 0x00 (0001ms, 31117ms total)
T508C 6256:006 JLINK_ReadReg(R15 (PC))  returns 0x08000258 (0000ms, 31117ms total)
T508C 6256:006 JLINK_ReadReg(XPSR)  returns 0x01000000 (0000ms, 31117ms total)
T508C 6256:013 JLINK_ReadMemEx(0x08000188, 0x003C Bytes, ..., Flags = 0x02000000) -- CPU_ReadMem(128 bytes @ 0x08000180) -- Updating C cache (128 bytes @ 0x08000180) -- Read from C cache (60 bytes @ 0x08000188) - Data: DF F8 0C D0 00 F0 34 F9 00 48 00 47 55 77 00 08 ...  returns 0x3C (0002ms, 31119ms total)
T508C 6256:015 JLINK_ReadMemEx(0x080001C4, 0x003C Bytes, ..., Flags = 0x02000000) -- Read from C cache (60 bytes @ 0x080001C4) - Data: 08 88 62 B6 61 B6 BF F3 4F 8F BF F3 6F 8F 00 DF ...  returns 0x3C (0000ms, 31119ms total)
T508C 6256:015 JLINK_ReadMemEx(0x08000200, 0x003C Bytes, ..., Flags = 0x02000000) -- CPU_ReadMem(64 bytes @ 0x08000200) -- Updating C cache (64 bytes @ 0x08000200) -- Read from C cache (60 bytes @ 0x08000200) - Data: 08 BF 20 ED 10 8A 20 E9 F0 4F 10 60 08 B4 4F F0 ...  returns 0x3C (0001ms, 31120ms total)
T508C 6256:017 JLINK_ReadMemEx(0x0800023C, 0x003C Bytes, ..., Flags = 0x02000000) -- CPU_ReadMem(64 bytes @ 0x08000240) -- Updating C cache (64 bytes @ 0x08000240) -- Read from C cache (60 bytes @ 0x0800023C) - Data: 10 8A 80 F3 09 88 BF F3 6F 8F 70 47 00 BF 00 BF ...  returns 0x3C (0001ms, 31121ms total)
T508C 6256:117 JLINK_WriteU32(0xE0001008, 0x00000000)  returns 0x00 (0000ms, 31121ms total)
T508C 6256:117 JLINK_WriteU32(0xE000100C, 0x00000000)  returns 0x00 (0000ms, 31121ms total)
T508C 6256:117 JLINK_WriteU32(0xE0001010, 0x00000000)  returns 0x00 (0000ms, 31121ms total)
T508C 6256:117 JLINK_WriteU32(0xE0001014, 0x00000000)  returns 0x00 (0000ms, 31121ms total)
T508C 6256:117 JLINK_WriteU32(0xE0001018, 0x00000000)  returns 0x00 (0000ms, 31121ms total)
T508C 6257:134 JLINK_ReadReg(R0)  returns 0x00000000 (0001ms, 31122ms total)
T508C 6257:135 JLINK_ReadReg(R1)  returns 0x00000000 (0000ms, 31122ms total)
T508C 6257:135 JLINK_ReadReg(R2)  returns 0x00000000 (0000ms, 31122ms total)
T508C 6257:135 JLINK_ReadReg(R3)  returns 0x00000000 (0000ms, 31122ms total)
T508C 6257:135 JLINK_ReadReg(R4)  returns 0x00000000 (0000ms, 31122ms total)
T508C 6257:135 JLINK_ReadReg(R5)  returns 0x00000000 (0000ms, 31122ms total)
T508C 6257:135 JLINK_ReadReg(R6)  returns 0x00000000 (0000ms, 31122ms total)
T508C 6257:135 JLINK_ReadReg(R7)  returns 0x00000000 (0000ms, 31122ms total)
T508C 6257:135 JLINK_ReadReg(R8)  returns 0x00000000 (0000ms, 31122ms total)
T508C 6257:135 JLINK_ReadReg(R9)  returns 0x00000000 (0000ms, 31122ms total)
T508C 6257:135 JLINK_ReadReg(R10)  returns 0x00000000 (0000ms, 31122ms total)
T508C 6257:135 JLINK_ReadReg(R11)  returns 0x00000000 (0000ms, 31122ms total)
T508C 6257:135 JLINK_ReadReg(R12)  returns 0x00000000 (0000ms, 31122ms total)
T508C 6257:135 JLINK_ReadReg(R13 (SP))  returns 0x2000B7F0 (0000ms, 31122ms total)
T508C 6257:135 JLINK_ReadReg(R14)  returns 0xFFFFFFFF (0000ms, 31122ms total)
T508C 6257:135 JLINK_ReadReg(R15 (PC))  returns 0x08000258 (0000ms, 31122ms total)
T508C 6257:135 JLINK_ReadReg(XPSR)  returns 0x01000000 (0000ms, 31122ms total)
T508C 6257:135 JLINK_ReadReg(MSP)  returns 0x2000B7F0 (0000ms, 31122ms total)
T508C 6257:135 JLINK_ReadReg(PSP)  returns 0x00000000 (0000ms, 31122ms total)
T508C 6257:135 JLINK_ReadReg(CFBP)  returns 0x00000000 (0000ms, 31122ms total)
T508C 6257:135 JLINK_ReadReg(FPSCR)  returns 0x00000000 (0008ms, 31130ms total)
T508C 6257:143 JLINK_ReadReg(FPS0)  returns 0x00000000 (0000ms, 31130ms total)
T508C 6257:143 JLINK_ReadReg(FPS1)  returns 0x00000000 (0000ms, 31130ms total)
T508C 6257:143 JLINK_ReadReg(FPS2)  returns 0x00000000 (0000ms, 31130ms total)
T508C 6257:143 JLINK_ReadReg(FPS3)  returns 0x00000000 (0000ms, 31130ms total)
T508C 6257:143 JLINK_ReadReg(FPS4)  returns 0x00000000 (0000ms, 31130ms total)
T508C 6257:143 JLINK_ReadReg(FPS5)  returns 0x00000000 (0000ms, 31130ms total)
T508C 6257:143 JLINK_ReadReg(FPS6)  returns 0x00000000 (0000ms, 31130ms total)
T508C 6257:143 JLINK_ReadReg(FPS7)  returns 0x00000000 (0000ms, 31130ms total)
T508C 6257:143 JLINK_ReadReg(FPS8)  returns 0x00000000 (0000ms, 31130ms total)
T508C 6257:143 JLINK_ReadReg(FPS9)  returns 0x00000000 (0000ms, 31130ms total)
T508C 6257:143 JLINK_ReadReg(FPS10)  returns 0x00000000 (0000ms, 31130ms total)
T508C 6257:143 JLINK_ReadReg(FPS11)  returns 0x00000000 (0000ms, 31130ms total)
T508C 6257:143 JLINK_ReadReg(FPS12)  returns 0x00000000 (0000ms, 31130ms total)
T508C 6257:143 JLINK_ReadReg(FPS13)  returns 0x00000000 (0000ms, 31130ms total)
T508C 6257:143 JLINK_ReadReg(FPS14)  returns 0x00000000 (0000ms, 31130ms total)
T508C 6257:143 JLINK_ReadReg(FPS15)  returns 0x00000000 (0000ms, 31130ms total)
T508C 6257:143 JLINK_ReadReg(FPS16)  returns 0x00000000 (0000ms, 31130ms total)
T508C 6257:143 JLINK_ReadReg(FPS17)  returns 0x00000000 (0000ms, 31130ms total)
T508C 6257:143 JLINK_ReadReg(FPS18)  returns 0x00000000 (0000ms, 31130ms total)
T508C 6257:143 JLINK_ReadReg(FPS19)  returns 0x00000000 (0000ms, 31130ms total)
T508C 6257:143 JLINK_ReadReg(FPS20)  returns 0x00000000 (0000ms, 31130ms total)
T508C 6257:143 JLINK_ReadReg(FPS21)  returns 0x00000000 (0000ms, 31130ms total)
T508C 6257:143 JLINK_ReadReg(FPS22)  returns 0x00000000 (0000ms, 31130ms total)
T508C 6257:143 JLINK_ReadReg(FPS23)  returns 0x00000000 (0000ms, 31130ms total)
T508C 6257:143 JLINK_ReadReg(FPS24)  returns 0x00000000 (0000ms, 31130ms total)
T508C 6257:143 JLINK_ReadReg(FPS25)  returns 0x00000000 (0000ms, 31130ms total)
T508C 6257:143 JLINK_ReadReg(FPS26)  returns 0x00000000 (0000ms, 31130ms total)
T508C 6257:143 JLINK_ReadReg(FPS27)  returns 0x00000000 (0000ms, 31130ms total)
T508C 6257:143 JLINK_ReadReg(FPS28)  returns 0x00000000 (0000ms, 31130ms total)
T508C 6257:143 JLINK_ReadReg(FPS29)  returns 0x00000000 (0000ms, 31130ms total)
T508C 6257:143 JLINK_ReadReg(FPS30)  returns 0x00000000 (0000ms, 31130ms total)
T508C 6257:143 JLINK_ReadReg(FPS31)  returns 0x00000000 (0000ms, 31130ms total)
T508C 6257:169 JLINK_ReadMemEx(0x0807FFF0, 0x0004 Bytes, ..., Flags = 0x02000000) -- CPU_ReadMem(64 bytes @ 0x0807FFC0) -- Updating C cache (64 bytes @ 0x0807FFC0) -- Read from C cache (4 bytes @ 0x0807FFF0) - Data: FF FF FF FF  returns 0x04 (0001ms, 31131ms total)
T508C 6257:177 JLINK_ReadMemEx(0x0807FFF4, 0x0004 Bytes, ..., Flags = 0x02000000) -- Read from C cache (4 bytes @ 0x0807FFF4) - Data: FF FF FF FF  returns 0x04 (0000ms, 31131ms total)
T508C 6257:188 JLINK_ReadMemEx(0x0807FFFC, 0x0004 Bytes, ..., Flags = 0x02000000) -- Read from C cache (4 bytes @ 0x0807FFFC) - Data: FF FF FF FF  returns 0x04 (0000ms, 31131ms total)
T869C 6257:216 JLINK_ReadMemEx(0x08000258, 0x0002 Bytes, ..., Flags = 0x02000000) -- Read from C cache (2 bytes @ 0x08000258) - Data: 06 48  returns 0x02 (0000ms, 31131ms total)
T869C 6257:216 JLINK_SetBPEx(Addr = 0x08007754, Type = 0xFFFFFFF2)  returns 0x00000001 (0000ms, 31131ms total)
T869C 6257:216 JLINK_SetBPEx(Addr = 0x0800306A, Type = 0xFFFFFFF2)  returns 0x00000002 (0000ms, 31131ms total)
T869C 6257:216 JLINK_SetBPEx(Addr = 0x08003084, Type = 0xFFFFFFF2)  returns 0x00000003 (0000ms, 31131ms total)
T869C 6257:216 JLINK_ReadMemU32(0xE0001004, 0x0001 Items, ...) - Data: 00 00 00 00  returns 0x01 (0000ms, 31131ms total)
T869C 6257:216 JLINK_WriteU32(0xE0001004, 0x000003FF)  returns 0x00 (0000ms, 31131ms total)
T869C 6257:216 JLINK_WriteU32(0xE0001000, 0x00410A1F)  returns 0x00 (0000ms, 31131ms total)
T869C 6257:216 JLINK_WriteU32(0xE0000E80, 0x0001000F)  returns 0x00 (0000ms, 31131ms total)
T869C 6257:216 JLINK_SWO_Control(JLINKARM_SWO_CMD_GET_NUM_BYTES, ...)  returns 0x00 (0000ms, 31131ms total)
T869C 6257:216 JLINK_Go() -- CPU_WriteMem(4 bytes @ 0xE0002000) -- CPU_WriteMem(4 bytes @ 0xE0002000) -- CPU_WriteMem(4 bytes @ 0xE0002000) -- CPU_WriteMem(4 bytes @ 0xE0001000) -- CPU_ReadMem(4 bytes @ 0xE0001000) -- CPU_WriteMem(4 bytes @ 0xE0000E80) -- CPU_WriteMem(4 bytes @ 0xE0001008) -- CPU_WriteMem(4 bytes @ 0xE000100C) -- CPU_WriteMem(4 bytes @ 0xE0001010) -- CPU_WriteMem(4 bytes @ 0xE0001014) -- CPU_WriteMem(4 bytes @ 0xE0001018) -- CPU_WriteMem(4 bytes @ 0xE0002008)
 -- CPU_WriteMem(4 bytes @ 0xE000200C) -- CPU_WriteMem(4 bytes @ 0xE0002010) -- CPU_WriteMem(4 bytes @ 0xE0002014) -- CPU_WriteMem(4 bytes @ 0xE0002018) -- CPU_WriteMem(4 bytes @ 0xE000201C) -- CPU_WriteMem(4 bytes @ 0xE0001004) (0008ms, 31139ms total)
T869C 6257:224 JLINK_WriteU32(0xE0001000, 0x00010A1F) -- CPU is running -- CPU_WriteMem(4 bytes @ 0xE0001000)  returns 0x00 (0001ms, 31140ms total)
T869C 6257:326 JLINK_SWO_Read(..., Offset = 0x00, NumBytes = 0x400000) - Data:  NumBytesRead = 0x00 (0000ms, 31140ms total)
T869C 6257:328 JLINK_SWO_Control(JLINKARM_SWO_CMD_FLUSH, ...)  returns 0x00 (0000ms, 31140ms total)
T869C 6257:328 JLINK_IsHalted()  returns TRUE (0004ms, 31144ms total)
T869C 6257:332 JLINK_Halt()  returns 0x00 (0000ms, 31140ms total)
T869C 6257:332 JLINK_IsHalted()  returns TRUE (0000ms, 31140ms total)
T869C 6257:332 JLINK_IsHalted()  returns TRUE (0000ms, 31140ms total)
T869C 6257:332 JLINK_IsHalted()  returns TRUE (0000ms, 31140ms total)
T869C 6257:332 JLINK_ReadReg(R15 (PC))  returns 0x08007754 (0000ms, 31140ms total)
T869C 6257:332 JLINK_ReadReg(XPSR)  returns 0x61000000 (0000ms, 31140ms total)
T869C 6257:332 JLINK_SWO_Read(..., Offset = 0x00, NumBytes = 0x400000) - Data:  NumBytesRead = 0x00 (0000ms, 31140ms total)
T869C 6257:334 JLINK_SWO_Control(JLINKARM_SWO_CMD_FLUSH, ...)  returns 0x00 (0000ms, 31140ms total)
T869C 6257:334 JLINK_ClrBPEx(BPHandle = 0x00000001)  returns 0x00 (0000ms, 31140ms total)
T869C 6257:334 JLINK_ClrBPEx(BPHandle = 0x00000002)  returns 0x00 (0000ms, 31140ms total)
T869C 6257:334 JLINK_ClrBPEx(BPHandle = 0x00000003)  returns 0x00 (0000ms, 31140ms total)
T869C 6257:334 JLINK_ReadMemU32(0xE000ED30, 0x0001 Items, ...) -- CPU_ReadMem(4 bytes @ 0xE000ED30) - Data: 02 00 00 00  returns 0x01 (0000ms, 31140ms total)
T869C 6257:334 JLINK_ReadMemU32(0xE0001028, 0x0001 Items, ...) -- CPU_ReadMem(4 bytes @ 0xE0001028) - Data: 00 00 00 00  returns 0x01 (0000ms, 31140ms total)
T869C 6257:334 JLINK_ReadMemU32(0xE0001038, 0x0001 Items, ...) -- CPU_ReadMem(4 bytes @ 0xE0001038) - Data: 00 02 00 00  returns 0x01 (0001ms, 31141ms total)
T869C 6257:335 JLINK_ReadMemU32(0xE0001048, 0x0001 Items, ...) -- CPU_ReadMem(4 bytes @ 0xE0001048) - Data: 00 00 00 00  returns 0x01 (0000ms, 31141ms total)
T869C 6257:335 JLINK_ReadMemU32(0xE0001058, 0x0001 Items, ...) -- CPU_ReadMem(4 bytes @ 0xE0001058) - Data: 00 00 00 00  returns 0x01 (0001ms, 31142ms total)
T869C 6257:336 JLINK_ReadReg(R0)  returns 0x08007755 (0000ms, 31142ms total)
T869C 6257:336 JLINK_ReadReg(R1)  returns 0x2000B7F0 (0000ms, 31142ms total)
T869C 6257:336 JLINK_ReadReg(R2)  returns 0x00000000 (0000ms, 31142ms total)
T869C 6257:336 JLINK_ReadReg(R3)  returns 0x08003305 (0000ms, 31142ms total)
T869C 6257:336 JLINK_ReadReg(R4)  returns 0x08010C8C (0000ms, 31142ms total)
T869C 6257:336 JLINK_ReadReg(R5)  returns 0x08010C8C (0000ms, 31142ms total)
T869C 6257:336 JLINK_ReadReg(R6)  returns 0x00000000 (0000ms, 31142ms total)
T869C 6257:336 JLINK_ReadReg(R7)  returns 0x00000000 (0000ms, 31142ms total)
T869C 6257:336 JLINK_ReadReg(R8)  returns 0x00000000 (0000ms, 31142ms total)
T869C 6257:336 JLINK_ReadReg(R9)  returns 0x00000000 (0000ms, 31142ms total)
T869C 6257:336 JLINK_ReadReg(R10)  returns 0x00000000 (0000ms, 31142ms total)
T869C 6257:336 JLINK_ReadReg(R11)  returns 0x00000000 (0000ms, 31142ms total)
T869C 6257:336 JLINK_ReadReg(R12)  returns 0x00000000 (0000ms, 31142ms total)
T869C 6257:336 JLINK_ReadReg(R13 (SP))  returns 0x2000B7F0 (0000ms, 31142ms total)
T869C 6257:336 JLINK_ReadReg(R14)  returns 0x08000415 (0000ms, 31142ms total)
T869C 6257:336 JLINK_ReadReg(R15 (PC))  returns 0x08007754 (0000ms, 31142ms total)
T869C 6257:336 JLINK_ReadReg(XPSR)  returns 0x61000000 (0000ms, 31142ms total)
T869C 6257:336 JLINK_ReadReg(MSP)  returns 0x2000B7F0 (0000ms, 31142ms total)
T869C 6257:336 JLINK_ReadReg(PSP)  returns 0x00000000 (0000ms, 31142ms total)
T869C 6257:336 JLINK_ReadReg(CFBP)  returns 0x00000000 (0000ms, 31142ms total)
T869C 6257:336 JLINK_ReadReg(FPSCR)  returns 0x00000000 (0007ms, 31149ms total)
T869C 6257:343 JLINK_ReadReg(FPS0)  returns 0x00000000 (0000ms, 31149ms total)
T869C 6257:343 JLINK_ReadReg(FPS1)  returns 0x00000000 (0000ms, 31149ms total)
T869C 6257:343 JLINK_ReadReg(FPS2)  returns 0x00000000 (0000ms, 31149ms total)
T869C 6257:343 JLINK_ReadReg(FPS3)  returns 0x00000000 (0000ms, 31149ms total)
T869C 6257:343 JLINK_ReadReg(FPS4)  returns 0x00000000 (0000ms, 31149ms total)
T869C 6257:343 JLINK_ReadReg(FPS5)  returns 0x00000000 (0000ms, 31149ms total)
T869C 6257:343 JLINK_ReadReg(FPS6)  returns 0x00000000 (0000ms, 31149ms total)
T869C 6257:343 JLINK_ReadReg(FPS7)  returns 0x00000000 (0000ms, 31149ms total)
T869C 6257:343 JLINK_ReadReg(FPS8)  returns 0x00000000 (0000ms, 31149ms total)
T869C 6257:344 JLINK_ReadReg(FPS9)  returns 0x00000000 (0000ms, 31149ms total)
T869C 6257:344 JLINK_ReadReg(FPS10)  returns 0x00000000 (0000ms, 31149ms total)
T869C 6257:344 JLINK_ReadReg(FPS11)  returns 0x00000000 (0000ms, 31149ms total)
T869C 6257:344 JLINK_ReadReg(FPS12)  returns 0x00000000 (0000ms, 31149ms total)
T869C 6257:344 JLINK_ReadReg(FPS13)  returns 0x00000000 (0000ms, 31149ms total)
T869C 6257:344 JLINK_ReadReg(FPS14)  returns 0x00000000 (0000ms, 31149ms total)
T869C 6257:344 JLINK_ReadReg(FPS15)  returns 0x00000000 (0000ms, 31149ms total)
T869C 6257:344 JLINK_ReadReg(FPS16)  returns 0x00000000 (0000ms, 31149ms total)
T869C 6257:344 JLINK_ReadReg(FPS17)  returns 0x00000000 (0000ms, 31149ms total)
T869C 6257:344 JLINK_ReadReg(FPS18)  returns 0x00000000 (0000ms, 31149ms total)
T869C 6257:344 JLINK_ReadReg(FPS19)  returns 0x00000000 (0000ms, 31149ms total)
T869C 6257:344 JLINK_ReadReg(FPS20)  returns 0x00000000 (0000ms, 31149ms total)
T869C 6257:344 JLINK_ReadReg(FPS21)  returns 0x00000000 (0000ms, 31149ms total)
T869C 6257:344 JLINK_ReadReg(FPS22)  returns 0x00000000 (0000ms, 31149ms total)
T869C 6257:344 JLINK_ReadReg(FPS23)  returns 0x00000000 (0000ms, 31149ms total)
T869C 6257:344 JLINK_ReadReg(FPS24)  returns 0x00000000 (0000ms, 31149ms total)
T869C 6257:344 JLINK_ReadReg(FPS25)  returns 0x00000000 (0000ms, 31149ms total)
T869C 6257:344 JLINK_ReadReg(FPS26)  returns 0x00000000 (0000ms, 31149ms total)
T869C 6257:344 JLINK_ReadReg(FPS27)  returns 0x00000000 (0000ms, 31149ms total)
T869C 6257:344 JLINK_ReadReg(FPS28)  returns 0x00000000 (0000ms, 31149ms total)
T869C 6257:344 JLINK_ReadReg(FPS29)  returns 0x00000000 (0000ms, 31149ms total)
T869C 6257:344 JLINK_ReadReg(FPS30)  returns 0x00000000 (0000ms, 31149ms total)
T869C 6257:344 JLINK_ReadReg(FPS31)  returns 0x00000000 (0000ms, 31149ms total)
T508C 6257:344 JLINK_ReadMemEx(0x0807FFF0, 0x0004 Bytes, ..., Flags = 0x02000000) -- CPU_ReadMem(64 bytes @ 0x0807FFC0) -- Updating C cache (64 bytes @ 0x0807FFC0) -- Read from C cache (4 bytes @ 0x0807FFF0) - Data: FF FF FF FF  returns 0x04 (0002ms, 31151ms total)
T508C 6257:346 JLINK_ReadMemEx(0x0807FFF4, 0x0004 Bytes, ..., Flags = 0x02000000) -- Read from C cache (4 bytes @ 0x0807FFF4) - Data: FF FF FF FF  returns 0x04 (0000ms, 31151ms total)
T508C 6257:347 JLINK_ReadMemEx(0x0807FFFC, 0x0004 Bytes, ..., Flags = 0x02000000) -- Read from C cache (4 bytes @ 0x0807FFFC) - Data: FF FF FF FF  returns 0x04 (0000ms, 31151ms total)
T508C 6257:352 JLINK_ReadMemEx(0x08007654, 0x003C Bytes, ..., Flags = 0x02000000) -- CPU_ReadMem(128 bytes @ 0x08007640) -- Updating C cache (128 bytes @ 0x08007640) -- Read from C cache (60 bytes @ 0x08007654) - Data: 43 F0 00 43 0B 60 C9 68 52 1C 83 6B 93 42 F6 D8 ...  returns 0x3C (0002ms, 31153ms total)
T508C 6257:354 JLINK_ReadMemEx(0x08007690, 0x003C Bytes, ..., Flags = 0x02000000) -- CPU_ReadMem(64 bytes @ 0x080076C0) -- Updating C cache (64 bytes @ 0x080076C0) -- Read from C cache (60 bytes @ 0x08007690) - Data: 83 46 04 46 D6 F8 08 A0 31 E0 30 68 00 28 0C DB ...  returns 0x3C (0001ms, 31154ms total)
T508C 6257:355 JLINK_ReadMemEx(0x080076CC, 0x003C Bytes, ..., Flags = 0x02000000) -- CPU_ReadMem(64 bytes @ 0x08007700) -- Updating C cache (64 bytes @ 0x08007700) -- Read from C cache (60 bytes @ 0x080076CC) - Data: AB EB 04 00 A9 F2 F4 57 00 F2 F4 5B 00 24 07 EB ...  returns 0x3C (0001ms, 31155ms total)
T508C 6257:356 JLINK_ReadMemEx(0x08007708, 0x003C Bytes, ..., Flags = 0x02000000) -- CPU_ReadMem(64 bytes @ 0x08007740) -- Updating C cache (64 bytes @ 0x08007740) -- Read from C cache (60 bytes @ 0x08007708) - Data: FD FD 00 20 06 49 09 68 01 F5 80 51 4A 69 92 06 ...  returns 0x3C (0001ms, 31156ms total)
T508C 6257:357 JLINK_ReadMemEx(0x08007744, 0x003C Bytes, ..., Flags = 0x02000000) -- Read from C cache (60 bytes @ 0x08007744) - Data: A1 FC 07 F0 33 F8 BD E8 10 40 06 F0 4F BD 00 00 ...  returns 0x3C (0001ms, 31157ms total)
T508C 6258:145 JLINK_SetResetType(JLINKARM_CM3_RESET_TYPE_NORMAL)  returns JLINKARM_CM3_RESET_TYPE_NORMAL (0000ms, 31157ms total)
T508C 6258:145 JLINK_Reset() -- CPU_WriteMem(4 bytes @ 0xE000EDF0) -- CPU_WriteMem(4 bytes @ 0xE000EDFC)Reset: Halt core after reset via DEMCR.VC_CORERESET. >0x35 TIF>Reset: Reset device via AIRCR.SYSRESETREQ. -- CPU_WriteMem(4 bytes @ 0xE000ED0C) >0x0D TIF> >0x28 TIF> -- CPU_ReadMem(4 bytes @ 0xE000EDF0) -- CPU_ReadMem(4 bytes @ 0xE000EDF0) -- CPU_WriteMem(4 bytes @ 0xE000EDF0) -- CPU_WriteMem(4 bytes @ 0xE000EDFC) -- CPU_ReadMem(4 bytes @ 0xE000EDF0) -- CPU_WriteMem(4 bytes @ 0xE0002000)
 -- CPU_ReadMem(4 bytes @ 0xE000EDFC) -- CPU_ReadMem(4 bytes @ 0xE0001000) -- CPU_ReadMem(4 bytes @ 0xE0042004) (0070ms, 31227ms total)
T508C 6258:216 JLINK_WriteU32(0xE000EDFC, 0x01000000) -- CPU_WriteMem(4 bytes @ 0xE000EDFC)  returns 0x00 (0001ms, 31228ms total)
T508C 6258:217 JLINK_ReadReg(R15 (PC))  returns 0x08000258 (0000ms, 31228ms total)
T508C 6258:217 JLINK_ReadReg(XPSR)  returns 0x01000000 (0000ms, 31228ms total)
T508C 6258:235 JLINK_ReadMemEx(0x08000188, 0x003C Bytes, ..., Flags = 0x02000000) -- CPU_ReadMem(128 bytes @ 0x08000180) -- Updating C cache (128 bytes @ 0x08000180) -- Read from C cache (60 bytes @ 0x08000188) - Data: DF F8 0C D0 00 F0 34 F9 00 48 00 47 55 77 00 08 ...  returns 0x3C (0003ms, 31231ms total)
T508C 6258:238 JLINK_ReadMemEx(0x080001C4, 0x003C Bytes, ..., Flags = 0x02000000) -- Read from C cache (60 bytes @ 0x080001C4) - Data: 08 88 62 B6 61 B6 BF F3 4F 8F BF F3 6F 8F 00 DF ...  returns 0x3C (0000ms, 31231ms total)
T508C 6258:238 JLINK_ReadMemEx(0x08000200, 0x003C Bytes, ..., Flags = 0x02000000) -- CPU_ReadMem(64 bytes @ 0x08000200) -- Updating C cache (64 bytes @ 0x08000200) -- Read from C cache (60 bytes @ 0x08000200) - Data: 08 BF 20 ED 10 8A 20 E9 F0 4F 10 60 08 B4 4F F0 ...  returns 0x3C (0001ms, 31232ms total)
T508C 6258:239 JLINK_ReadMemEx(0x0800023E, 0x0002 Bytes, ..., Flags = 0x02000000) -- Read from C cache (2 bytes @ 0x0800023E) - Data: 80 F3  returns 0x02 (0000ms, 31232ms total)
T508C 6258:239 JLINK_ReadMemEx(0x08000240, 0x003C Bytes, ..., Flags = 0x02000000) -- CPU_ReadMem(64 bytes @ 0x08000240) -- Updating C cache (64 bytes @ 0x08000240) -- Read from C cache (60 bytes @ 0x08000240) - Data: 09 88 BF F3 6F 8F 70 47 00 BF 00 BF 64 00 00 20 ...  returns 0x3C (0002ms, 31234ms total)
T508C 6258:336 JLINK_ReadReg(R0)  returns 0x00000000 (0000ms, 31234ms total)
T508C 6258:336 JLINK_ReadReg(R1)  returns 0x00000000 (0000ms, 31234ms total)
T508C 6258:336 JLINK_ReadReg(R2)  returns 0x00000000 (0000ms, 31234ms total)
T508C 6258:336 JLINK_ReadReg(R3)  returns 0x00000000 (0000ms, 31234ms total)
T508C 6258:336 JLINK_ReadReg(R4)  returns 0x00000000 (0000ms, 31234ms total)
T508C 6258:336 JLINK_ReadReg(R5)  returns 0x00000000 (0000ms, 31234ms total)
T508C 6258:336 JLINK_ReadReg(R6)  returns 0x00000000 (0000ms, 31234ms total)
T508C 6258:336 JLINK_ReadReg(R7)  returns 0x00000000 (0000ms, 31234ms total)
T508C 6258:336 JLINK_ReadReg(R8)  returns 0x00000000 (0000ms, 31234ms total)
T508C 6258:336 JLINK_ReadReg(R9)  returns 0x00000000 (0000ms, 31234ms total)
T508C 6258:336 JLINK_ReadReg(R10)  returns 0x00000000 (0000ms, 31234ms total)
T508C 6258:336 JLINK_ReadReg(R11)  returns 0x00000000 (0000ms, 31234ms total)
T508C 6258:336 JLINK_ReadReg(R12)  returns 0x00000000 (0000ms, 31234ms total)
T508C 6258:336 JLINK_ReadReg(R13 (SP))  returns 0x2000B7F0 (0000ms, 31234ms total)
T508C 6258:336 JLINK_ReadReg(R14)  returns 0xFFFFFFFF (0000ms, 31234ms total)
T508C 6258:336 JLINK_ReadReg(R15 (PC))  returns 0x08000258 (0000ms, 31234ms total)
T508C 6258:336 JLINK_ReadReg(XPSR)  returns 0x01000000 (0000ms, 31234ms total)
T508C 6258:336 JLINK_ReadReg(MSP)  returns 0x2000B7F0 (0000ms, 31234ms total)
T508C 6258:336 JLINK_ReadReg(PSP)  returns 0x00000000 (0000ms, 31234ms total)
T508C 6258:336 JLINK_ReadReg(CFBP)  returns 0x00000000 (0000ms, 31234ms total)
T508C 6258:336 JLINK_ReadReg(FPSCR)  returns 0x00000000 (0006ms, 31240ms total)
T508C 6258:342 JLINK_ReadReg(FPS0)  returns 0x00000000 (0000ms, 31240ms total)
T508C 6258:342 JLINK_ReadReg(FPS1)  returns 0x00000000 (0000ms, 31240ms total)
T508C 6258:342 JLINK_ReadReg(FPS2)  returns 0x00000000 (0000ms, 31240ms total)
T508C 6258:342 JLINK_ReadReg(FPS3)  returns 0x00000000 (0000ms, 31240ms total)
T508C 6258:342 JLINK_ReadReg(FPS4)  returns 0x00000000 (0000ms, 31240ms total)
T508C 6258:342 JLINK_ReadReg(FPS5)  returns 0x00000000 (0000ms, 31240ms total)
T508C 6258:342 JLINK_ReadReg(FPS6)  returns 0x00000000 (0000ms, 31240ms total)
T508C 6258:342 JLINK_ReadReg(FPS7)  returns 0x00000000 (0000ms, 31240ms total)
T508C 6258:342 JLINK_ReadReg(FPS8)  returns 0x00000000 (0000ms, 31240ms total)
T508C 6258:342 JLINK_ReadReg(FPS9)  returns 0x00000000 (0000ms, 31240ms total)
T508C 6258:342 JLINK_ReadReg(FPS10)  returns 0x00000000 (0000ms, 31240ms total)
T508C 6258:342 JLINK_ReadReg(FPS11)  returns 0x00000000 (0000ms, 31240ms total)
T508C 6258:342 JLINK_ReadReg(FPS12)  returns 0x00000000 (0000ms, 31240ms total)
T508C 6258:342 JLINK_ReadReg(FPS13)  returns 0x00000000 (0001ms, 31241ms total)
T508C 6258:343 JLINK_ReadReg(FPS14)  returns 0x00000000 (0000ms, 31241ms total)
T508C 6258:343 JLINK_ReadReg(FPS15)  returns 0x00000000 (0000ms, 31241ms total)
T508C 6258:343 JLINK_ReadReg(FPS16)  returns 0x00000000 (0000ms, 31241ms total)
T508C 6258:343 JLINK_ReadReg(FPS17)  returns 0x00000000 (0000ms, 31241ms total)
T508C 6258:343 JLINK_ReadReg(FPS18)  returns 0x00000000 (0000ms, 31241ms total)
T508C 6258:343 JLINK_ReadReg(FPS19)  returns 0x00000000 (0000ms, 31241ms total)
T508C 6258:343 JLINK_ReadReg(FPS20)  returns 0x00000000 (0000ms, 31241ms total)
T508C 6258:343 JLINK_ReadReg(FPS21)  returns 0x00000000 (0000ms, 31241ms total)
T508C 6258:343 JLINK_ReadReg(FPS22)  returns 0x00000000 (0000ms, 31241ms total)
T508C 6258:343 JLINK_ReadReg(FPS23)  returns 0x00000000 (0000ms, 31241ms total)
T508C 6258:343 JLINK_ReadReg(FPS24)  returns 0x00000000 (0000ms, 31241ms total)
T508C 6258:343 JLINK_ReadReg(FPS25)  returns 0x00000000 (0000ms, 31241ms total)
T508C 6258:343 JLINK_ReadReg(FPS26)  returns 0x00000000 (0000ms, 31241ms total)
T508C 6258:343 JLINK_ReadReg(FPS27)  returns 0x00000000 (0000ms, 31241ms total)
T508C 6258:343 JLINK_ReadReg(FPS28)  returns 0x00000000 (0000ms, 31241ms total)
T508C 6258:343 JLINK_ReadReg(FPS29)  returns 0x00000000 (0000ms, 31241ms total)
T508C 6258:343 JLINK_ReadReg(FPS30)  returns 0x00000000 (0000ms, 31241ms total)
T508C 6258:343 JLINK_ReadReg(FPS31)  returns 0x00000000 (0000ms, 31241ms total)
T508C 6258:343 JLINK_ReadMemEx(0x0807FFF0, 0x0004 Bytes, ..., Flags = 0x02000000) -- CPU_ReadMem(64 bytes @ 0x0807FFC0) -- Updating C cache (64 bytes @ 0x0807FFC0) -- Read from C cache (4 bytes @ 0x0807FFF0) - Data: FF FF FF FF  returns 0x04 (0001ms, 31242ms total)
T508C 6258:344 JLINK_ReadMemEx(0x0807FFF4, 0x0004 Bytes, ..., Flags = 0x02000000) -- Read from C cache (4 bytes @ 0x0807FFF4) - Data: FF FF FF FF  returns 0x04 (0000ms, 31242ms total)
T508C 6258:345 JLINK_ReadMemEx(0x0807FFFC, 0x0004 Bytes, ..., Flags = 0x02000000) -- Read from C cache (4 bytes @ 0x0807FFFC) - Data: FF FF FF FF  returns 0x04 (0000ms, 31242ms total)
T508C 6258:373 JLINK_WriteU32(0xE0001008, 0x00000000)  returns 0x00 (0000ms, 31242ms total)
T508C 6258:373 JLINK_WriteU32(0xE000100C, 0x00000000)  returns 0x00 (0000ms, 31242ms total)
T508C 6258:373 JLINK_WriteU32(0xE0001010, 0x00000000)  returns 0x00 (0000ms, 31242ms total)
T508C 6258:373 JLINK_WriteU32(0xE0001014, 0x00000000)  returns 0x00 (0000ms, 31242ms total)
T508C 6258:373 JLINK_WriteU32(0xE0001018, 0x00000000)  returns 0x00 (0000ms, 31242ms total)
T869C 6258:620 JLINK_ReadMemEx(0x08000258, 0x0002 Bytes, ..., Flags = 0x02000000) -- Read from C cache (2 bytes @ 0x08000258) - Data: 06 48  returns 0x02 (0000ms, 31242ms total)
T869C 6258:620 JLINK_SetBPEx(Addr = 0x0800306A, Type = 0xFFFFFFF2)  returns 0x00000004 (0000ms, 31242ms total)
T869C 6258:620 JLINK_SetBPEx(Addr = 0x08003084, Type = 0xFFFFFFF2)  returns 0x00000005 (0000ms, 31242ms total)
T869C 6258:620 JLINK_ReadMemU32(0xE0001004, 0x0001 Items, ...) - Data: 00 00 00 00  returns 0x01 (0000ms, 31242ms total)
T869C 6258:620 JLINK_WriteU32(0xE0001004, 0x000003FF)  returns 0x00 (0000ms, 31242ms total)
T869C 6258:620 JLINK_WriteU32(0xE0001000, 0x00410A1F)  returns 0x00 (0000ms, 31242ms total)
T869C 6258:620 JLINK_WriteU32(0xE0000E80, 0x0001000F)  returns 0x00 (0000ms, 31242ms total)
T869C 6258:620 JLINK_SWO_Control(JLINKARM_SWO_CMD_GET_NUM_BYTES, ...)  returns 0x00 (0000ms, 31242ms total)
T869C 6258:620 JLINK_Go() -- CPU_WriteMem(4 bytes @ 0xE0002000) -- CPU_WriteMem(4 bytes @ 0xE0002000) -- CPU_WriteMem(4 bytes @ 0xE0001000) -- CPU_ReadMem(4 bytes @ 0xE0001000) -- CPU_WriteMem(4 bytes @ 0xE0000E80) -- CPU_WriteMem(4 bytes @ 0xE0001008) -- CPU_WriteMem(4 bytes @ 0xE000100C) -- CPU_WriteMem(4 bytes @ 0xE0001010) -- CPU_WriteMem(4 bytes @ 0xE0001014) -- CPU_WriteMem(4 bytes @ 0xE0001018) -- CPU_WriteMem(4 bytes @ 0xE0002008) -- CPU_WriteMem(4 bytes @ 0xE000200C)
 -- CPU_WriteMem(4 bytes @ 0xE0002010) -- CPU_WriteMem(4 bytes @ 0xE0002014) -- CPU_WriteMem(4 bytes @ 0xE0002018) -- CPU_WriteMem(4 bytes @ 0xE000201C) -- CPU_WriteMem(4 bytes @ 0xE0001004) (0008ms, 31250ms total)
T869C 6258:629 JLINK_WriteU32(0xE0001000, 0x00010A1F) -- CPU is running -- CPU_WriteMem(4 bytes @ 0xE0001000)  returns 0x00 (0000ms, 31250ms total)
T869C 6258:730 JLINK_SWO_Read(..., Offset = 0x00, NumBytes = 0x400000) - Data: 28 ED B5 04 0E 29 20 C0 8E 01 0E 00 30 C0 07 70 ...  NumBytesRead = 0x983 (0000ms, 31250ms total)
T869C 6258:732 JLINK_SWO_Control(JLINKARM_SWO_CMD_FLUSH, ...)  returns 0x00 (0000ms, 31250ms total)
T869C 6258:732 JLINK_IsHalted()  returns FALSE (0001ms, 31251ms total)
T869C 6258:833 JLINK_SWO_Read(..., Offset = 0x00, NumBytes = 0x400000) - Data: C0 C5 01 0E 00 30 70 0E 00 30 F0 B3 8E 02 0E 29 ...  NumBytesRead = 0xA25 (0000ms, 31250ms total)
T869C 6258:835 JLINK_SWO_Control(JLINKARM_SWO_CMD_FLUSH, ...)  returns 0x00 (0000ms, 31250ms total)
T869C 6258:835 JLINK_IsHalted()  returns FALSE (0001ms, 31251ms total)
T869C 6258:937 JLINK_SWO_Read(..., Offset = 0x00, NumBytes = 0x400000) - Data: 0E 29 20 C0 81 02 0E 00 30 70 0E 00 30 F0 F1 8D ...  NumBytesRead = 0xA26 (0000ms, 31250ms total)
T869C 6258:939 JLINK_SWO_Control(JLINKARM_SWO_CMD_FLUSH, ...)  returns 0x00 (0000ms, 31250ms total)
T869C 6258:940 JLINK_IsHalted()  returns FALSE (0001ms, 31251ms total)
T869C 6259:042 JLINK_SWO_Read(..., Offset = 0x00, NumBytes = 0x400000) - Data: 0E 1B 10 70 0E 00 30 70 0E 00 30 70 0E 1B 10 70 ...  NumBytesRead = 0xA45 (0000ms, 31250ms total)
T869C 6259:044 JLINK_SWO_Control(JLINKARM_SWO_CMD_FLUSH, ...)  returns 0x00 (0000ms, 31250ms total)
T869C 6259:054 JLINK_IsHalted()  returns FALSE (0001ms, 31251ms total)
T869C 6259:156 JLINK_SWO_Read(..., Offset = 0x00, NumBytes = 0x400000) - Data: 70 0E 00 30 70 0E 00 30 70 0E 00 30 70 0E 00 30 ...  NumBytesRead = 0xB28 (0000ms, 31250ms total)
T869C 6259:158 JLINK_SWO_Control(JLINKARM_SWO_CMD_FLUSH, ...)  returns 0x00 (0000ms, 31250ms total)
T869C 6259:160 JLINK_ReadMemU32(0xE0001004, 0x0001 Items, ...) -- CPU_ReadMem(4 bytes @ 0xE0001004) - Data: 68 FD 4E 05  returns 0x01 (0001ms, 31251ms total)
T508C 6259:162 JLINK_ReadMemEx(0x0807FFF0, 0x0004 Bytes, ..., Flags = 0x02000000) -- CPU_ReadMem(4 bytes @ 0x0807FFF0) - Data: FF FF FF FF  returns 0x04 (0001ms, 31252ms total)
T508C 6259:163 JLINK_ReadMemEx(0x0807FFF4, 0x0004 Bytes, ..., Flags = 0x02000000) -- CPU_ReadMem(4 bytes @ 0x0807FFF4) - Data: FF FF FF FF  returns 0x04 (0001ms, 31253ms total)
T508C 6259:170 JLINK_ReadMemEx(0x0807FFFC, 0x0004 Bytes, ..., Flags = 0x02000000) -- CPU_ReadMem(4 bytes @ 0x0807FFFC) - Data: FF FF FF FF  returns 0x04 (0001ms, 31254ms total)
T869C 6259:184 JLINK_IsHalted()  returns FALSE (0000ms, 31254ms total)
T869C 6259:285 JLINK_SWO_Read(..., Offset = 0x00, NumBytes = 0x400000) - Data: C0 07 70 0E 00 30 F0 EB C2 02 0E 29 10 C0 85 DC ...  NumBytesRead = 0xCB2 (0000ms, 31254ms total)
T869C 6259:287 JLINK_SWO_Control(JLINKARM_SWO_CMD_FLUSH, ...)  returns 0x00 (0000ms, 31254ms total)
T869C 6259:287 JLINK_IsHalted()  returns FALSE (0001ms, 31255ms total)
T869C 6259:388 JLINK_SWO_Read(..., Offset = 0x00, NumBytes = 0x400000) - Data: C0 07 70 0E 00 30 F0 EB C2 02 0E 29 10 C0 85 DC ...  NumBytesRead = 0xA22 (0000ms, 31254ms total)
T869C 6259:390 JLINK_SWO_Control(JLINKARM_SWO_CMD_FLUSH, ...)  returns 0x00 (0000ms, 31254ms total)
T869C 6259:390 JLINK_IsHalted()  returns FALSE (0001ms, 31255ms total)
T869C 6259:492 JLINK_SWO_Read(..., Offset = 0x00, NumBytes = 0x400000) - Data: C0 C5 01 0E 00 30 C0 07 70 0E 00 30 F0 EB C2 02 ...  NumBytesRead = 0xA2C (0000ms, 31254ms total)
T869C 6259:494 JLINK_SWO_Control(JLINKARM_SWO_CMD_FLUSH, ...)  returns 0x00 (0000ms, 31254ms total)
T869C 6259:494 JLINK_IsHalted()  returns FALSE (0001ms, 31255ms total)
T869C 6259:596 JLINK_SWO_Read(..., Offset = 0x00, NumBytes = 0x400000) - Data: 0E 00 30 70 0E 00 30 F0 B3 8E 02 0E 29 10 C0 C5 ...  NumBytesRead = 0xA28 (0000ms, 31254ms total)
T869C 6259:598 JLINK_SWO_Control(JLINKARM_SWO_CMD_FLUSH, ...)  returns 0x00 (0000ms, 31254ms total)
T869C 6259:598 JLINK_IsHalted()  returns FALSE (0001ms, 31255ms total)
T869C 6259:699 JLINK_SWO_Read(..., Offset = 0x00, NumBytes = 0x400000) - Data: 0E 00 30 70 0E 00 30 F0 B3 8E 02 0E 29 10 C0 C5 ...  NumBytesRead = 0xA21 (0000ms, 31254ms total)
T869C 6259:701 JLINK_SWO_Control(JLINKARM_SWO_CMD_FLUSH, ...)  returns 0x00 (0000ms, 31254ms total)
T869C 6259:701 JLINK_ReadMemU32(0xE0001004, 0x0001 Items, ...) - Data: 68 FD 4E 05  returns 0x01 (0000ms, 31254ms total)
T508C 6259:701 JLINK_ReadMemEx(0x0807FFF0, 0x0004 Bytes, ..., Flags = 0x02000000) -- CPU_ReadMem(4 bytes @ 0x0807FFF0) - Data: FF FF FF FF  returns 0x04 (0001ms, 31255ms total)
T508C 6259:702 JLINK_ReadMemEx(0x0807FFF4, 0x0004 Bytes, ..., Flags = 0x02000000) -- CPU_ReadMem(4 bytes @ 0x0807FFF4) - Data: FF FF FF FF  returns 0x04 (0001ms, 31256ms total)
T508C 6259:709 JLINK_ReadMemEx(0x0807FFFC, 0x0004 Bytes, ..., Flags = 0x02000000) -- CPU_ReadMem(4 bytes @ 0x0807FFFC) - Data: FF FF FF FF  returns 0x04 (0001ms, 31257ms total)
T869C 6259:724 JLINK_IsHalted()  returns FALSE (0001ms, 31258ms total)
T869C 6259:826 JLINK_SWO_Read(..., Offset = 0x00, NumBytes = 0x400000) - Data: 0E 29 20 C0 C5 01 0E 00 30 C0 07 70 0E 00 30 F0 ...  NumBytesRead = 0xC75 (0000ms, 31257ms total)
T869C 6259:828 JLINK_SWO_Control(JLINKARM_SWO_CMD_FLUSH, ...)  returns 0x00 (0000ms, 31257ms total)
T869C 6259:828 JLINK_IsHalted()  returns FALSE (0001ms, 31258ms total)
T869C 6259:929 JLINK_SWO_Read(..., Offset = 0x00, NumBytes = 0x400000) - Data: F0 B3 8E 02 00 00 00 00 00 80 0E 29 10 C0 C5 90 ...  NumBytesRead = 0xA23 (0000ms, 31257ms total)
T869C 6259:931 JLINK_SWO_Control(JLINKARM_SWO_CMD_FLUSH, ...)  returns 0x00 (0000ms, 31257ms total)
T869C 6259:931 JLINK_IsHalted()  returns FALSE (0001ms, 31258ms total)
T869C 6260:033 JLINK_SWO_Read(..., Offset = 0x00, NumBytes = 0x400000) - Data: C0 07 70 0E 00 30 F0 A5 C2 02 0E 29 10 C0 85 DC ...  NumBytesRead = 0xA2B (0000ms, 31257ms total)
T869C 6260:035 JLINK_SWO_Control(JLINKARM_SWO_CMD_FLUSH, ...)  returns 0x00 (0000ms, 31257ms total)
T869C 6260:035 JLINK_IsHalted()  returns FALSE (0000ms, 31257ms total)
T869C 6260:136 JLINK_SWO_Read(..., Offset = 0x00, NumBytes = 0x400000) - Data: 0E 00 30 F0 EB C2 02 0E 29 10 C0 85 DC 07 0E 29 ...  NumBytesRead = 0xA1F (0000ms, 31257ms total)
T869C 6260:138 JLINK_SWO_Control(JLINKARM_SWO_CMD_FLUSH, ...)  returns 0x00 (0000ms, 31257ms total)
T869C 6260:138 JLINK_IsHalted()  returns FALSE (0000ms, 31257ms total)
T869C 6260:240 JLINK_SWO_Read(..., Offset = 0x00, NumBytes = 0x400000) - Data: C0 C5 01 0E 00 30 C0 07 70 0E 00 30 F0 EB C2 02 ...  NumBytesRead = 0xA28 (0000ms, 31257ms total)
T869C 6260:242 JLINK_SWO_Control(JLINKARM_SWO_CMD_FLUSH, ...)  returns 0x00 (0000ms, 31257ms total)
T869C 6260:242 JLINK_ReadMemU32(0xE0001004, 0x0001 Items, ...) - Data: 68 FD 4E 05  returns 0x01 (0000ms, 31257ms total)
T508C 6260:242 JLINK_ReadMemEx(0x0807FFF0, 0x0004 Bytes, ..., Flags = 0x02000000) -- CPU_ReadMem(4 bytes @ 0x0807FFF0) - Data: FF FF FF FF  returns 0x04 (0000ms, 31257ms total)
T508C 6260:242 JLINK_ReadMemEx(0x0807FFF4, 0x0004 Bytes, ..., Flags = 0x02000000) -- CPU_ReadMem(4 bytes @ 0x0807FFF4) - Data: FF FF FF FF  returns 0x04 (0001ms, 31258ms total)
T508C 6260:244 JLINK_ReadMemEx(0x0807FFFC, 0x0004 Bytes, ..., Flags = 0x02000000) -- CPU_ReadMem(4 bytes @ 0x0807FFFC) - Data: FF FF FF FF  returns 0x04 (0001ms, 31259ms total)
T869C 6260:248 JLINK_IsHalted()  returns FALSE (0000ms, 31259ms total)
T869C 6260:349 JLINK_SWO_Read(..., Offset = 0x00, NumBytes = 0x400000) - Data: C0 C5 01 0E 00 30 C0 07 70 0E 00 30 F0 EB C2 02 ...  NumBytesRead = 0xAAC (0000ms, 31259ms total)
T869C 6260:351 JLINK_SWO_Control(JLINKARM_SWO_CMD_FLUSH, ...)  returns 0x00 (0000ms, 31259ms total)
T869C 6260:351 JLINK_IsHalted()  returns FALSE (0000ms, 31259ms total)
T869C 6260:453 JLINK_SWO_Read(..., Offset = 0x00, NumBytes = 0x400000) - Data: 70 0E 00 30 F0 B3 8E 02 0E 29 10 C0 C5 90 08 0E ...  NumBytesRead = 0xA33 (0000ms, 31259ms total)
T869C 6260:455 JLINK_SWO_Control(JLINKARM_SWO_CMD_FLUSH, ...)  returns 0x00 (0000ms, 31259ms total)
T869C 6260:455 JLINK_IsHalted()  returns FALSE (0001ms, 31260ms total)
T869C 6260:556 JLINK_SWO_Read(..., Offset = 0x00, NumBytes = 0x400000) - Data: C0 C5 90 08 0E 29 20 C0 C5 01 0E 00 30 C0 07 70 ...  NumBytesRead = 0xA1E (0000ms, 31259ms total)
T869C 6260:558 JLINK_SWO_Control(JLINKARM_SWO_CMD_FLUSH, ...)  returns 0x00 (0000ms, 31259ms total)
T869C 6260:558 JLINK_IsHalted()  returns FALSE (0001ms, 31260ms total)
T869C 6260:660 JLINK_SWO_Read(..., Offset = 0x00, NumBytes = 0x400000) - Data: 0E 00 30 F0 B3 8E 02 0E 29 10 C0 C5 90 08 0E 29 ...  NumBytesRead = 0xA32 (0000ms, 31259ms total)
T869C 6260:662 JLINK_SWO_Control(JLINKARM_SWO_CMD_FLUSH, ...)  returns 0x00 (0000ms, 31259ms total)
T869C 6260:662 JLINK_IsHalted()  returns FALSE (0001ms, 31260ms total)
T869C 6260:763 JLINK_SWO_Read(..., Offset = 0x00, NumBytes = 0x400000) - Data: C0 C5 90 08 0E 29 20 C0 C5 01 0E 00 30 C0 07 70 ...  NumBytesRead = 0xA2F (0000ms, 31259ms total)
T869C 6260:765 JLINK_SWO_Control(JLINKARM_SWO_CMD_FLUSH, ...)  returns 0x00 (0000ms, 31259ms total)
T869C 6260:765 JLINK_ReadMemU32(0xE0001004, 0x0001 Items, ...) - Data: 68 FD 4E 05  returns 0x01 (0000ms, 31259ms total)
T508C 6260:765 JLINK_ReadMemEx(0x0807FFF0, 0x0004 Bytes, ..., Flags = 0x02000000) -- CPU_ReadMem(4 bytes @ 0x0807FFF0) - Data: FF FF FF FF  returns 0x04 (0001ms, 31260ms total)
T508C 6260:766 JLINK_ReadMemEx(0x0807FFF4, 0x0004 Bytes, ..., Flags = 0x02000000) -- CPU_ReadMem(4 bytes @ 0x0807FFF4) - Data: FF FF FF FF  returns 0x04 (0001ms, 31261ms total)
T508C 6260:772 JLINK_ReadMemEx(0x0807FFFC, 0x0004 Bytes, ..., Flags = 0x02000000) -- CPU_ReadMem(4 bytes @ 0x0807FFFC) - Data: FF FF FF FF  returns 0x04 (0001ms, 31262ms total)
T869C 6260:786 JLINK_IsHalted()  returns FALSE (0001ms, 31263ms total)
T869C 6260:888 JLINK_SWO_Read(..., Offset = 0x00, NumBytes = 0x400000) - Data: C0 C5 01 0E 00 30 C0 07 70 0E 00 30 F0 EB C2 02 ...  NumBytesRead = 0xC44 (0000ms, 31263ms total)
T869C 6260:890 JLINK_SWO_Control(JLINKARM_SWO_CMD_FLUSH, ...)  returns 0x00 (0000ms, 31263ms total)
T869C 6260:890 JLINK_IsHalted()  returns FALSE (0001ms, 31264ms total)
T869C 6260:992 JLINK_SWO_Read(..., Offset = 0x00, NumBytes = 0x400000) - Data: 0E 29 10 C0 C5 90 08 0E 29 20 C0 C5 01 0E 00 30 ...  NumBytesRead = 0xA2F (0000ms, 31263ms total)
T869C 6260:994 JLINK_SWO_Control(JLINKARM_SWO_CMD_FLUSH, ...)  returns 0x00 (0000ms, 31263ms total)
T869C 6260:994 JLINK_IsHalted()  returns FALSE (0001ms, 31264ms total)
T869C 6261:095 JLINK_SWO_Read(..., Offset = 0x00, NumBytes = 0x400000) - Data: 0E 29 20 C0 C5 01 0E 00 30 C0 07 70 0E 00 30 F0 ...  NumBytesRead = 0xA1E (0000ms, 31263ms total)
T869C 6261:097 JLINK_SWO_Control(JLINKARM_SWO_CMD_FLUSH, ...)  returns 0x00 (0000ms, 31263ms total)
T869C 6261:097 JLINK_IsHalted()  returns FALSE (0001ms, 31264ms total)
T869C 6261:198 JLINK_SWO_Read(..., Offset = 0x00, NumBytes = 0x400000) - Data: F0 EB C2 02 0E 29 10 C0 85 DC 07 0E 29 20 C0 C5 ...  NumBytesRead = 0xA1F (0000ms, 31263ms total)
T869C 6261:200 JLINK_SWO_Control(JLINKARM_SWO_CMD_FLUSH, ...)  returns 0x00 (0000ms, 31263ms total)
T869C 6261:200 JLINK_IsHalted()  returns FALSE (0001ms, 31264ms total)
T869C 6261:302 JLINK_SWO_Read(..., Offset = 0x00, NumBytes = 0x400000) - Data: 0E 00 30 C0 07 70 0E 00 30 F0 EB C2 02 0E 29 10 ...  NumBytesRead = 0xA35 (0000ms, 31263ms total)
T869C 6261:304 JLINK_SWO_Control(JLINKARM_SWO_CMD_FLUSH, ...)  returns 0x00 (0000ms, 31263ms total)
